
T426C 000:496 SEGGER J-Link V4.40 Log File (0000ms, 0494ms total)
T426C 000:496 DLL Compiled: Dec  9 2011 18:59:34 (0000ms, 0494ms total)
T426C 000:496 Logging started @ 2018-05-02 10:49 (0000ms, 0494ms total)
T426C 000:496 JLINK_SetWarnOutHandler(...) (0000ms, 0494ms total)
T426C 000:496 JLINK_OpenEx(...)
Firmware: J-Link ARM V8 compiled Nov 28 2014 13:44:46
Hardware: V8.00
S/N: 99999998
Feature(s): RDI,FlashDL,FlashBP,JFlash,GDBFULL  returns O.K. (0225ms, 0494ms total)
T426C 000:721 JLINK_SetErrorOutHandler(...) (0000ms, 0719ms total)
T426C 000:721 JLINK_ExecCommand("ProjectFile = "D:\Documents\Projects\RAK811_BreakBoard-master(January)\Keil\classA\JLinkSettings.ini"", ...)  returns 0x00 (0001ms, 0719ms total)
T426C 000:736 JLINK_ExecCommand("Device = STM32L151CB", ...)
                JLINK_ExecCommand("map ram 0x20000000 - 0x20003FFF", ...)  returns 0x00 (0000ms, 0000ms total)
                JLINK_AddMirrorAreaEx(Addr = 0x00000000, Size = 0x00000000) (0000ms, 0000ms total)
              Device "STM32L151CB" selected (128 KB flash, 16 KB RAM).  returns 0x00 (0009ms, 0720ms total)
T426C 000:745 JLINK_ExecCommand("DisableConnectionTimeout", ...)  returns 0x00 (0000ms, 0729ms total)
T426C 000:745 JLINK_GetHardwareVersion()  returns 0x13880 (0000ms, 0729ms total)
T426C 000:745 JLINK_GetDLLVersion()  returns 44000 (0000ms, 0729ms total)
T426C 000:745 JLINK_GetFirmwareString(...) (0000ms, 0729ms total)
T426C 000:756 JLINK_GetDLLVersion()  returns 44000 (0000ms, 0729ms total)
T426C 000:756 JLINK_GetCompileDateTime() (0000ms, 0729ms total)
T426C 000:760 JLINK_GetFirmwareString(...) (0000ms, 0729ms total)
T426C 000:762 JLINK_GetHardwareVersion()  returns 0x13880 (0000ms, 0729ms total)
T426C 000:772 JLINK_TIF_Select(JLINKARM_TIF_SWD)  returns 0x00 (0004ms, 0729ms total)
T426C 000:776 JLINK_SetSpeed(5000) (0000ms, 0733ms total)
T426C 000:776 JLINK_GetId() >0x108 TIF>Found SWD-DP with ID 0x2BA01477 >0x33 TIF> >0x33 TIF> >0x35 TIF> >0x33 TIF> >0x35 TIF> >0x33 TIF> >0x33 TIF> >0x35 TIF> >0x33 TIF> >0x33 TIF> >0x35 TIF> >0x33 TIF> >0x33 TIF> >0x35 TIF> >0x33 TIF> >0x33 TIF> >0x35 TIF> >0x35 TIF> >0x35 TIF> >0x35 TIF> >0x35 TIF> >0x33 TIF> >0x33 TIF> >0x35 TIF> >0x33 TIF> >0x33 TIF> >0x33 TIF>TPIU fitted.ETM fitted. >0x35 TIF> >0x33 TIF> >0x33 TIF> >0x35 TIF> >0x33 TIF> >0x33 TIF>  FPUnit: 6 code (BP) slots and 2 literal slots
 >0x35 TIF> >0x33 TIF> >0x33 TIF> >0x35 TIF> >0x35 TIF> >0x35 TIF> >0x33 TIF> >0x33 TIF> >0x35 TIF> >0x33 TIF> >0x33 TIF> >0x35 TIF> >0x33 TIF> >0x33 TIF>Found Cortex-M3 r2p0, Little endian. >0x33 TIF>  returns 0x2BA01477 (0058ms, 0733ms total)
T426C 000:834 JLINK_GetDLLVersion()  returns 44000 (0000ms, 0791ms total)
T426C 000:834 JLINK_CORE_GetFound()  returns 0x30000FF (0000ms, 0791ms total)
T426C 000:836 JLINK_GetDebugInfo(0x100) -- Value=0xE00FF003  returns 0x00 (0000ms, 0791ms total)
T426C 000:836 JLINK_GetDebugInfo(0x101)  returns 0xFFFFFFFF (0000ms, 0791ms total)
T426C 000:836 JLINK_ReadMem (0xE0041FF0, 0x0010 Bytes, ...) -- CPU is running -- CPU_ReadMem(16 bytes @ 0xE0041FF0) -- Data:  0D 00 00 00 90 00 00 00 05 00 00 00 B1 00 00 00  returns 0x00 (0002ms, 0791ms total)
T426C 000:838 JLINK_GetDebugInfo(0x102)  returns 0xFFFFFFFF (0000ms, 0793ms total)
T426C 000:838 JLINK_GetDebugInfo(0x103)  returns 0xFFFFFFFF (0000ms, 0793ms total)
T426C 000:838 JLINK_ReadMem (0xE0040FF0, 0x0010 Bytes, ...) -- CPU is running -- CPU_ReadMem(16 bytes @ 0xE0040FF0) -- Data:  0D 00 00 00 90 00 00 00 05 00 00 00 B1 00 00 00  returns 0x00 (0000ms, 0793ms total)
T426C 000:838 JLINK_GetDebugInfo(0x104)  returns 0xFFFFFFFF (0000ms, 0793ms total)
T426C 000:838 JLINK_GetDebugInfo(0x105)  returns 0xFFFFFFFF (0000ms, 0793ms total)
T426C 000:838 JLINK_GetDebugInfo(0x106)  returns 0xFFFFFFFF (0001ms, 0793ms total)
T426C 000:839 JLINK_GetDebugInfo(0x107)  returns 0xFFFFFFFF (0000ms, 0794ms total)
T426C 000:839 JLINK_GetDebugInfo(0x10C)  returns 0xFFFFFFFF (0000ms, 0794ms total)
T426C 000:839 JLINK_ReadMemU32(0xE000ED00, 0x0001 Items, ...) -- CPU is running -- CPU_ReadMem(4 bytes @ 0xE000ED00) -- Data:  30 C2 2F 41  returns 0x01 (0000ms, 0794ms total)
T426C 000:839 JLINK_SetResetType(JLINKARM_RESET_TYPE_ADI)  returns JLINKARM_RESET_TYPE_NORMAL (0000ms, 0794ms total)
T426C 000:839 JLINK_Reset() >0x108 TIF>Found SWD-DP with ID 0x2BA01477 >0x33 TIF> >0x33 TIF> >0x35 TIF> >0x33 TIF> >0x35 TIF> >0x33 TIF> >0x33 TIF> >0x35 TIF> >0x33 TIF> >0x33 TIF> >0x35 TIF> >0x33 TIF> >0x33 TIF> >0x35 TIF> >0x33 TIF> >0x33 TIF> >0x35 TIF> >0x35 TIF> >0x35 TIF> >0x35 TIF> >0x35 TIF> >0x33 TIF> >0x33 TIF> >0x35 TIF> >0x33 TIF> >0x33 TIF> >0x33 TIF>TPIU fitted.ETM fitted. >0x35 TIF> >0x33 TIF> >0x33 TIF> >0x35 TIF> >0x33 TIF> >0x33 TIF>  FPUnit: 6 code (BP) slots and 2 literal slots
 >0x35 TIF> >0x33 TIF> >0x33 TIF> >0x35 TIF> >0x33 TIF> >0x33 TIF> >0x35 TIF> >0x33 TIF> >0x33 TIF> >0x35 TIF> >0x33 TIF> >0x33 TIF>Found Cortex-M3 r2p0, Little endian. -- CPU is running -- CPU_WriteMem(4 bytes @ 0xE000EDF0) -- CPU is running -- CPU_WriteMem(4 bytes @ 0xE000EDFC) -- CPU_WriteMem(4 bytes @ 0xE000EDF0) -- CPU_WriteMem(4 bytes @ 0xE000EDFC) -- CPU_ReadMem(4 bytes @ 0xE000EDF0) >0x1D7 TIF> >0x1D7 TIF> -- CPU_ReadMem(4 bytes @ 0xE000EDF0) -- CPU_ReadMem(4 bytes @ 0xE000EDF0)
 -- CPU_WriteMem(4 bytes @ 0xE000EDF0) -- CPU_WriteMem(4 bytes @ 0xE000EDFC) -- CPU is running -- CPU_ReadMem(4 bytes @ 0xE000EDF0) (0218ms, 0794ms total)
T426C 001:058 JLINK_Halt()  returns 0x00 (0000ms, 1012ms total)
T426C 001:058 JLINK_IsHalted()  returns TRUE (0000ms, 1012ms total)
T426C 001:058 JLINK_ReadMemU32(0xE000EDF0, 0x0001 Items, ...) -- CPU_ReadMem(4 bytes @ 0xE000EDF0) -- Data:  03 00 03 00  returns 0x01 (0002ms, 1012ms total)
T426C 001:060 JLINK_WriteU32(0xE000EDF0, 0xA05F0003) -- CPU_WriteMem(4 bytes @ 0xE000EDF0)  returns 0x00 (0001ms, 1014ms total)
T426C 001:061 JLINK_WriteU32(0xE000EDFC, 0x01000000) -- CPU_WriteMem(4 bytes @ 0xE000EDFC)  returns 0x00 (0001ms, 1015ms total)
T426C 001:069 JLINK_GetHWStatus(...)  returns 0x00 (0001ms, 1016ms total)
T426C 001:078 JLINK_GetNumBPUnits(Type = 0xFFFFFF00)  returns 0x06 (0000ms, 1017ms total)
T426C 001:078 JLINK_GetNumBPUnits(Type = 0xF0)  returns 0x2000 (0000ms, 1017ms total)
T426C 001:078 JLINK_GetNumWPUnits()  returns 0x04 (0000ms, 1017ms total)
T426C 001:085 JLINK_GetSpeed()  returns 0xFA0 (0000ms, 1017ms total)
T426C 001:089 JLINK_ReadMemU32(0xE000E004, 0x0001 Items, ...) -- CPU_ReadMem(4 bytes @ 0xE000E004) -- Data:  01 00 00 00  returns 0x01 (0000ms, 1017ms total)
T426C 001:089 JLINK_ReadMemU32(0xE000E004, 0x0001 Items, ...) -- CPU_ReadMem(4 bytes @ 0xE000E004) -- Data:  01 00 00 00  returns 0x01 (0001ms, 1017ms total)
T426C 001:090 JLINK_WriteMem(0xE0001000, 0x001C Bytes, ...) -- Data:  01 00 00 00 00 00 00 00 00 00 00 00 00 00 00 00 ... -- CPU_WriteMem(28 bytes @ 0xE0001000)  returns 0x1C (0002ms, 1018ms total)
T426C 001:092 JLINK_ReadMem (0xE0001000, 0x001C Bytes, ...) -- CPU_ReadMem(28 bytes @ 0xE0001000) -- Data:  01 00 00 40 00 00 00 00 00 00 00 00 00 00 00 00 ...  returns 0x00 (0001ms, 1020ms total)
T426C 001:093 JLINK_Halt()  returns 0x00 (0000ms, 1021ms total)
T426C 001:093 JLINK_IsHalted()  returns TRUE (0000ms, 1021ms total)
T426C 001:096 JLINK_WriteMem(0x20000000, 0x0218 Bytes, ...) -- Data:  00 BE 0A E0 0D 78 2D 06 68 40 08 24 40 00 00 D3 ... -- CPU_WriteMem(536 bytes @ 0x20000000)  returns 0x218 (0004ms, 1021ms total)
T426C 001:100 JLINK_WriteReg(R0, 0x08000000)  returns 0x00 (0000ms, 1025ms total)
T426C 001:100 JLINK_WriteReg(R1, 0x00B71B00)  returns 0x00 (0000ms, 1025ms total)
T426C 001:100 JLINK_WriteReg(R2, 0x00000001)  returns 0x00 (0000ms, 1025ms total)
T426C 001:100 JLINK_WriteReg(R3, 0x00000000)  returns 0x00 (0000ms, 1025ms total)
T426C 001:100 JLINK_WriteReg(R4, 0x00000000)  returns 0x00 (0000ms, 1025ms total)
T426C 001:100 JLINK_WriteReg(R5, 0x00000000)  returns 0x00 (0000ms, 1025ms total)
T426C 001:100 JLINK_WriteReg(R6, 0x00000000)  returns 0x00 (0000ms, 1025ms total)
T426C 001:100 JLINK_WriteReg(R7, 0x00000000)  returns 0x00 (0000ms, 1025ms total)
T426C 001:100 JLINK_WriteReg(R8, 0x00000000)  returns 0x00 (0000ms, 1025ms total)
T426C 001:100 JLINK_WriteReg(R9, 0x20000214)  returns 0x00 (0000ms, 1025ms total)
T426C 001:100 JLINK_WriteReg(R10, 0x00000000)  returns 0x00 (0000ms, 1025ms total)
T426C 001:100 JLINK_WriteReg(R11, 0x00000000)  returns 0x00 (0000ms, 1025ms total)
T426C 001:100 JLINK_WriteReg(R12, 0x00000000)  returns 0x00 (0000ms, 1025ms total)
T426C 001:100 JLINK_WriteReg(R13, 0x20001000)  returns 0x00 (0000ms, 1025ms total)
T426C 001:100 JLINK_WriteReg(R14, 0x20000001)  returns 0x00 (0000ms, 1025ms total)
T426C 001:100 JLINK_WriteReg(R15, 0x20000020)  returns 0x00 (0000ms, 1025ms total)
T426C 001:100 JLINK_WriteReg(XPSR, 0x01000000)  returns 0x00 (0000ms, 1025ms total)
T426C 001:100 JLINK_WriteReg(MSP, 0x20001000)  returns 0x00 (0000ms, 1025ms total)
T426C 001:100 JLINK_WriteReg(PSP, 0x20001000)  returns 0x00 (0000ms, 1025ms total)
T426C 001:100 JLINK_WriteReg(CFBP, 0x00000000)  returns 0x00 (0000ms, 1025ms total)
T426C 001:100 JLINK_SetBPEx(Addr = 0x20000000, Type = 0xFFFFFFF2) -- CPU_ReadMem(2 bytes @ 0x20000000)  returns 0x00000001 (0001ms, 1025ms total)
T426C 001:101 JLINK_Go() -- CPU_WriteMem(2 bytes @ 0x20000000) -- CPU_WriteMem(4 bytes @ 0xE0002008) -- CPU_WriteMem(4 bytes @ 0xE000200C) -- CPU_WriteMem(4 bytes @ 0xE0002010) -- CPU_WriteMem(4 bytes @ 0xE0002014) -- CPU_WriteMem(4 bytes @ 0xE0002018) -- CPU_WriteMem(4 bytes @ 0xE000201C) (0009ms, 1026ms total)
T426C 001:110 JLINK_IsHalted() -- CPU_ReadMem(2 bytes @ 0x20000000)  returns TRUE (0004ms, 1035ms total)
T426C 001:114 JLINK_ReadReg(R15)  returns 0x20000000 (0000ms, 1035ms total)
T426C 001:114 JLINK_ClrBPEx(BPHandle = 0x00000001)  returns 0x00 (0000ms, 1035ms total)
T426C 001:114 JLINK_ReadReg(R0)  returns 0x00000000 (0000ms, 1035ms total)
T426C 001:114 JLINK_WriteReg(R0, 0x08000000)  returns 0x00 (0000ms, 1035ms total)
T426C 001:114 JLINK_WriteReg(R1, 0x00000100)  returns 0x00 (0000ms, 1035ms total)
T426C 001:114 JLINK_WriteReg(R2, 0x00000000)  returns 0x00 (0000ms, 1035ms total)
T426C 001:114 JLINK_WriteReg(R3, 0x00000000)  returns 0x00 (0000ms, 1035ms total)
T426C 001:114 JLINK_WriteReg(R4, 0x00000000)  returns 0x00 (0000ms, 1035ms total)
T426C 001:114 JLINK_WriteReg(R5, 0x00000000)  returns 0x00 (0000ms, 1035ms total)
T426C 001:115 JLINK_WriteReg(R6, 0x00000000)  returns 0x00 (0000ms, 1036ms total)
T426C 001:115 JLINK_WriteReg(R7, 0x00000000)  returns 0x00 (0000ms, 1036ms total)
T426C 001:115 JLINK_WriteReg(R8, 0x00000000)  returns 0x00 (0000ms, 1036ms total)
T426C 001:115 JLINK_WriteReg(R9, 0x20000214)  returns 0x00 (0000ms, 1036ms total)
T426C 001:115 JLINK_WriteReg(R10, 0x00000000)  returns 0x00 (0000ms, 1036ms total)
T426C 001:115 JLINK_WriteReg(R11, 0x00000000)  returns 0x00 (0000ms, 1036ms total)
T426C 001:115 JLINK_WriteReg(R12, 0x00000000)  returns 0x00 (0000ms, 1036ms total)
T426C 001:115 JLINK_WriteReg(R13, 0x20001000)  returns 0x00 (0000ms, 1036ms total)
T426C 001:115 JLINK_WriteReg(R14, 0x20000001)  returns 0x00 (0000ms, 1036ms total)
T426C 001:115 JLINK_WriteReg(R15, 0x200000FA)  returns 0x00 (0000ms, 1036ms total)
T426C 001:115 JLINK_WriteReg(XPSR, 0x01000000)  returns 0x00 (0000ms, 1036ms total)
T426C 001:115 JLINK_WriteReg(MSP, 0x20001000)  returns 0x00 (0000ms, 1036ms total)
T426C 001:115 JLINK_WriteReg(PSP, 0x20001000)  returns 0x00 (0000ms, 1036ms total)
T426C 001:115 JLINK_WriteReg(CFBP, 0x00000000)  returns 0x00 (0000ms, 1036ms total)
T426C 001:115 JLINK_SetBPEx(Addr = 0x20000000, Type = 0xFFFFFFF2)  returns 0x00000002 (0000ms, 1036ms total)
T426C 001:115 JLINK_Go() -- CPU_WriteMem(4 bytes @ 0xE0002008) -- CPU_WriteMem(4 bytes @ 0xE000200C) -- CPU_WriteMem(4 bytes @ 0xE0002010) -- CPU_WriteMem(4 bytes @ 0xE0002014) -- CPU_WriteMem(4 bytes @ 0xE0002018) -- CPU_WriteMem(4 bytes @ 0xE000201C) (0007ms, 1036ms total)
T426C 001:122 JLINK_IsHalted() -- CPU_ReadMem(2 bytes @ 0x20000000)  returns TRUE (0004ms, 1043ms total)
T426C 001:126 JLINK_ReadReg(R15)  returns 0x20000000 (0000ms, 1043ms total)
T426C 001:126 JLINK_ClrBPEx(BPHandle = 0x00000002)  returns 0x00 (0000ms, 1043ms total)
T426C 001:126 JLINK_ReadReg(R0)  returns 0x00000001 (0000ms, 1043ms total)
T426C 001:126 JLINK_WriteReg(R0, 0x08000000)  returns 0x00 (0000ms, 1043ms total)
T426C 001:126 JLINK_WriteReg(R1, 0x00000100)  returns 0x00 (0000ms, 1043ms total)
T426C 001:126 JLINK_WriteReg(R2, 0x00000000)  returns 0x00 (0000ms, 1043ms total)
T426C 001:126 JLINK_WriteReg(R3, 0x00000000)  returns 0x00 (0000ms, 1043ms total)
T426C 001:126 JLINK_WriteReg(R4, 0x00000000)  returns 0x00 (0000ms, 1043ms total)
T426C 001:126 JLINK_WriteReg(R5, 0x00000000)  returns 0x00 (0000ms, 1043ms total)
T426C 001:126 JLINK_WriteReg(R6, 0x00000000)  returns 0x00 (0000ms, 1043ms total)
T426C 001:126 JLINK_WriteReg(R7, 0x00000000)  returns 0x00 (0000ms, 1043ms total)
T426C 001:126 JLINK_WriteReg(R8, 0x00000000)  returns 0x00 (0000ms, 1043ms total)
T426C 001:126 JLINK_WriteReg(R9, 0x20000214)  returns 0x00 (0000ms, 1043ms total)
T426C 001:126 JLINK_WriteReg(R10, 0x00000000)  returns 0x00 (0000ms, 1043ms total)
T426C 001:126 JLINK_WriteReg(R11, 0x00000000)  returns 0x00 (0000ms, 1043ms total)
T426C 001:126 JLINK_WriteReg(R12, 0x00000000)  returns 0x00 (0000ms, 1043ms total)
T426C 001:126 JLINK_WriteReg(R13, 0x20001000)  returns 0x00 (0000ms, 1043ms total)
T426C 001:126 JLINK_WriteReg(R14, 0x20000001)  returns 0x00 (0000ms, 1043ms total)
T426C 001:126 JLINK_WriteReg(R15, 0x200000A8)  returns 0x00 (0000ms, 1043ms total)
T426C 001:127 JLINK_WriteReg(XPSR, 0x01000000)  returns 0x00 (0000ms, 1044ms total)
T426C 001:127 JLINK_WriteReg(MSP, 0x20001000)  returns 0x00 (0000ms, 1044ms total)
T426C 001:127 JLINK_WriteReg(PSP, 0x20001000)  returns 0x00 (0000ms, 1044ms total)
T426C 001:127 JLINK_WriteReg(CFBP, 0x00000000)  returns 0x00 (0000ms, 1044ms total)
T426C 001:127 JLINK_SetBPEx(Addr = 0x20000000, Type = 0xFFFFFFF2)  returns 0x00000003 (0000ms, 1044ms total)
T426C 001:127 JLINK_Go() -- CPU_WriteMem(4 bytes @ 0xE0002008) -- CPU_WriteMem(4 bytes @ 0xE000200C) -- CPU_WriteMem(4 bytes @ 0xE0002010) -- CPU_WriteMem(4 bytes @ 0xE0002014) -- CPU_WriteMem(4 bytes @ 0xE0002018) -- CPU_WriteMem(4 bytes @ 0xE000201C) (0007ms, 1044ms total)
T426C 001:134 JLINK_IsHalted()  returns FALSE (0001ms, 1051ms total)
T426C 001:235 JLINK_IsHalted() -- CPU_ReadMem(2 bytes @ 0x20000000)  returns TRUE (0004ms, 1051ms total)
T426C 001:239 JLINK_ReadReg(R15)  returns 0x20000000 (0000ms, 1051ms total)
T426C 001:239 JLINK_ClrBPEx(BPHandle = 0x00000003)  returns 0x00 (0000ms, 1051ms total)
T426C 001:239 JLINK_ReadReg(R0)  returns 0x00000000 (0000ms, 1051ms total)
T426C 001:239 JLINK_WriteReg(R0, 0x08000100)  returns 0x00 (0000ms, 1051ms total)
T426C 001:239 JLINK_WriteReg(R1, 0x00000100)  returns 0x00 (0001ms, 1051ms total)
T426C 001:240 JLINK_WriteReg(R2, 0x00000000)  returns 0x00 (0000ms, 1052ms total)
T426C 001:240 JLINK_WriteReg(R3, 0x00000000)  returns 0x00 (0000ms, 1052ms total)
T426C 001:240 JLINK_WriteReg(R4, 0x00000000)  returns 0x00 (0000ms, 1052ms total)
T426C 001:240 JLINK_WriteReg(R5, 0x00000000)  returns 0x00 (0000ms, 1052ms total)
T426C 001:240 JLINK_WriteReg(R6, 0x00000000)  returns 0x00 (0000ms, 1052ms total)
T426C 001:240 JLINK_WriteReg(R7, 0x00000000)  returns 0x00 (0000ms, 1052ms total)
T426C 001:240 JLINK_WriteReg(R8, 0x00000000)  returns 0x00 (0000ms, 1052ms total)
T426C 001:240 JLINK_WriteReg(R9, 0x20000214)  returns 0x00 (0000ms, 1052ms total)
T426C 001:240 JLINK_WriteReg(R10, 0x00000000)  returns 0x00 (0000ms, 1052ms total)
T426C 001:240 JLINK_WriteReg(R11, 0x00000000)  returns 0x00 (0000ms, 1052ms total)
T426C 001:240 JLINK_WriteReg(R12, 0x00000000)  returns 0x00 (0000ms, 1052ms total)
T426C 001:240 JLINK_WriteReg(R13, 0x20001000)  returns 0x00 (0000ms, 1052ms total)
T426C 001:240 JLINK_WriteReg(R14, 0x20000001)  returns 0x00 (0000ms, 1052ms total)
T426C 001:240 JLINK_WriteReg(R15, 0x200000FA)  returns 0x00 (0000ms, 1052ms total)
T426C 001:240 JLINK_WriteReg(XPSR, 0x01000000)  returns 0x00 (0000ms, 1052ms total)
T426C 001:240 JLINK_WriteReg(MSP, 0x20001000)  returns 0x00 (0000ms, 1052ms total)
T426C 001:240 JLINK_WriteReg(PSP, 0x20001000)  returns 0x00 (0000ms, 1052ms total)
T426C 001:240 JLINK_WriteReg(CFBP, 0x00000000)  returns 0x00 (0000ms, 1052ms total)
T426C 001:240 JLINK_SetBPEx(Addr = 0x20000000, Type = 0xFFFFFFF2)  returns 0x00000004 (0000ms, 1052ms total)
T426C 001:240 JLINK_Go() -- CPU_WriteMem(4 bytes @ 0xE0002008) -- CPU_WriteMem(4 bytes @ 0xE000200C) -- CPU_WriteMem(4 bytes @ 0xE0002010) -- CPU_WriteMem(4 bytes @ 0xE0002014) -- CPU_WriteMem(4 bytes @ 0xE0002018) -- CPU_WriteMem(4 bytes @ 0xE000201C) (0008ms, 1052ms total)
T426C 001:248 JLINK_IsHalted() -- CPU_ReadMem(2 bytes @ 0x20000000)  returns TRUE (0004ms, 1060ms total)
T426C 001:252 JLINK_ReadReg(R15)  returns 0x20000000 (0000ms, 1060ms total)
T426C 001:252 JLINK_ClrBPEx(BPHandle = 0x00000004)  returns 0x00 (0000ms, 1060ms total)
T426C 001:252 JLINK_ReadReg(R0)  returns 0x00000001 (0000ms, 1060ms total)
T426C 001:252 JLINK_WriteReg(R0, 0x08000100)  returns 0x00 (0000ms, 1060ms total)
T426C 001:252 JLINK_WriteReg(R1, 0x00000100)  returns 0x00 (0000ms, 1060ms total)
T426C 001:252 JLINK_WriteReg(R2, 0x00000000)  returns 0x00 (0000ms, 1060ms total)
T426C 001:252 JLINK_WriteReg(R3, 0x00000000)  returns 0x00 (0000ms, 1060ms total)
T426C 001:252 JLINK_WriteReg(R4, 0x00000000)  returns 0x00 (0000ms, 1060ms total)
T426C 001:252 JLINK_WriteReg(R5, 0x00000000)  returns 0x00 (0000ms, 1060ms total)
T426C 001:252 JLINK_WriteReg(R6, 0x00000000)  returns 0x00 (0000ms, 1060ms total)
T426C 001:252 JLINK_WriteReg(R7, 0x00000000)  returns 0x00 (0000ms, 1060ms total)
T426C 001:252 JLINK_WriteReg(R8, 0x00000000)  returns 0x00 (0000ms, 1060ms total)
T426C 001:252 JLINK_WriteReg(R9, 0x20000214)  returns 0x00 (0000ms, 1060ms total)
T426C 001:252 JLINK_WriteReg(R10, 0x00000000)  returns 0x00 (0000ms, 1060ms total)
T426C 001:252 JLINK_WriteReg(R11, 0x00000000)  returns 0x00 (0000ms, 1060ms total)
T426C 001:252 JLINK_WriteReg(R12, 0x00000000)  returns 0x00 (0000ms, 1060ms total)
T426C 001:252 JLINK_WriteReg(R13, 0x20001000)  returns 0x00 (0000ms, 1060ms total)
T426C 001:252 JLINK_WriteReg(R14, 0x20000001)  returns 0x00 (0000ms, 1060ms total)
T426C 001:252 JLINK_WriteReg(R15, 0x200000A8)  returns 0x00 (0000ms, 1060ms total)
T426C 001:252 JLINK_WriteReg(XPSR, 0x01000000)  returns 0x00 (0000ms, 1060ms total)
T426C 001:252 JLINK_WriteReg(MSP, 0x20001000)  returns 0x00 (0000ms, 1060ms total)
T426C 001:252 JLINK_WriteReg(PSP, 0x20001000)  returns 0x00 (0000ms, 1060ms total)
T426C 001:252 JLINK_WriteReg(CFBP, 0x00000000)  returns 0x00 (0000ms, 1060ms total)
T426C 001:252 JLINK_SetBPEx(Addr = 0x20000000, Type = 0xFFFFFFF2)  returns 0x00000005 (0000ms, 1060ms total)
T426C 001:252 JLINK_Go() -- CPU_WriteMem(4 bytes @ 0xE0002008) -- CPU_WriteMem(4 bytes @ 0xE000200C) -- CPU_WriteMem(4 bytes @ 0xE0002010) -- CPU_WriteMem(4 bytes @ 0xE0002014) -- CPU_WriteMem(4 bytes @ 0xE0002018) -- CPU_WriteMem(4 bytes @ 0xE000201C) (0008ms, 1060ms total)
T426C 001:260 JLINK_IsHalted()  returns FALSE (0001ms, 1068ms total)
T426C 001:263 JLINK_IsHalted() -- CPU_ReadMem(2 bytes @ 0x20000000)  returns TRUE (0004ms, 1068ms total)
T426C 001:267 JLINK_ReadReg(R15)  returns 0x20000000 (0000ms, 1068ms total)
T426C 001:267 JLINK_ClrBPEx(BPHandle = 0x00000005)  returns 0x00 (0000ms, 1068ms total)
T426C 001:267 JLINK_ReadReg(R0)  returns 0x00000000 (0000ms, 1068ms total)
T426C 001:267 JLINK_WriteReg(R0, 0x08000200)  returns 0x00 (0000ms, 1068ms total)
T426C 001:267 JLINK_WriteReg(R1, 0x00000100)  returns 0x00 (0000ms, 1068ms total)
T426C 001:267 JLINK_WriteReg(R2, 0x00000000)  returns 0x00 (0000ms, 1068ms total)
T426C 001:267 JLINK_WriteReg(R3, 0x00000000)  returns 0x00 (0000ms, 1068ms total)
T426C 001:267 JLINK_WriteReg(R4, 0x00000000)  returns 0x00 (0000ms, 1068ms total)
T426C 001:267 JLINK_WriteReg(R5, 0x00000000)  returns 0x00 (0000ms, 1068ms total)
T426C 001:267 JLINK_WriteReg(R6, 0x00000000)  returns 0x00 (0000ms, 1068ms total)
T426C 001:267 JLINK_WriteReg(R7, 0x00000000)  returns 0x00 (0000ms, 1068ms total)
T426C 001:267 JLINK_WriteReg(R8, 0x00000000)  returns 0x00 (0000ms, 1068ms total)
T426C 001:267 JLINK_WriteReg(R9, 0x20000214)  returns 0x00 (0001ms, 1068ms total)
T426C 001:268 JLINK_WriteReg(R10, 0x00000000)  returns 0x00 (0000ms, 1069ms total)
T426C 001:268 JLINK_WriteReg(R11, 0x00000000)  returns 0x00 (0000ms, 1069ms total)
T426C 001:268 JLINK_WriteReg(R12, 0x00000000)  returns 0x00 (0000ms, 1069ms total)
T426C 001:268 JLINK_WriteReg(R13, 0x20001000)  returns 0x00 (0000ms, 1069ms total)
T426C 001:268 JLINK_WriteReg(R14, 0x20000001)  returns 0x00 (0000ms, 1069ms total)
T426C 001:268 JLINK_WriteReg(R15, 0x200000FA)  returns 0x00 (0000ms, 1069ms total)
T426C 001:268 JLINK_WriteReg(XPSR, 0x01000000)  returns 0x00 (0000ms, 1069ms total)
T426C 001:268 JLINK_WriteReg(MSP, 0x20001000)  returns 0x00 (0000ms, 1069ms total)
T426C 001:268 JLINK_WriteReg(PSP, 0x20001000)  returns 0x00 (0000ms, 1069ms total)
T426C 001:268 JLINK_WriteReg(CFBP, 0x00000000)  returns 0x00 (0000ms, 1069ms total)
T426C 001:268 JLINK_SetBPEx(Addr = 0x20000000, Type = 0xFFFFFFF2)  returns 0x00000006 (0000ms, 1069ms total)
T426C 001:268 JLINK_Go() -- CPU_WriteMem(4 bytes @ 0xE0002008) -- CPU_WriteMem(4 bytes @ 0xE000200C) -- CPU_WriteMem(4 bytes @ 0xE0002010) -- CPU_WriteMem(4 bytes @ 0xE0002014) -- CPU_WriteMem(4 bytes @ 0xE0002018) -- CPU_WriteMem(4 bytes @ 0xE000201C) (0007ms, 1069ms total)
T426C 001:275 JLINK_IsHalted() -- CPU_ReadMem(2 bytes @ 0x20000000)  returns TRUE (0004ms, 1076ms total)
T426C 001:279 JLINK_ReadReg(R15)  returns 0x20000000 (0000ms, 1076ms total)
T426C 001:279 JLINK_ClrBPEx(BPHandle = 0x00000006)  returns 0x00 (0000ms, 1076ms total)
T426C 001:279 JLINK_ReadReg(R0)  returns 0x00000001 (0000ms, 1076ms total)
T426C 001:279 JLINK_WriteReg(R0, 0x08000200)  returns 0x00 (0000ms, 1076ms total)
T426C 001:279 JLINK_WriteReg(R1, 0x00000100)  returns 0x00 (0000ms, 1076ms total)
T426C 001:279 JLINK_WriteReg(R2, 0x00000000)  returns 0x00 (0000ms, 1076ms total)
T426C 001:279 JLINK_WriteReg(R3, 0x00000000)  returns 0x00 (0000ms, 1076ms total)
T426C 001:279 JLINK_WriteReg(R4, 0x00000000)  returns 0x00 (0000ms, 1076ms total)
T426C 001:279 JLINK_WriteReg(R5, 0x00000000)  returns 0x00 (0000ms, 1076ms total)
T426C 001:279 JLINK_WriteReg(R6, 0x00000000)  returns 0x00 (0000ms, 1076ms total)
T426C 001:279 JLINK_WriteReg(R7, 0x00000000)  returns 0x00 (0000ms, 1076ms total)
T426C 001:279 JLINK_WriteReg(R8, 0x00000000)  returns 0x00 (0000ms, 1076ms total)
T426C 001:279 JLINK_WriteReg(R9, 0x20000214)  returns 0x00 (0000ms, 1076ms total)
T426C 001:279 JLINK_WriteReg(R10, 0x00000000)  returns 0x00 (0000ms, 1076ms total)
T426C 001:279 JLINK_WriteReg(R11, 0x00000000)  returns 0x00 (0000ms, 1076ms total)
T426C 001:279 JLINK_WriteReg(R12, 0x00000000)  returns 0x00 (0000ms, 1076ms total)
T426C 001:279 JLINK_WriteReg(R13, 0x20001000)  returns 0x00 (0000ms, 1076ms total)
T426C 001:280 JLINK_WriteReg(R14, 0x20000001)  returns 0x00 (0000ms, 1076ms total)
T426C 001:280 JLINK_WriteReg(R15, 0x200000A8)  returns 0x00 (0000ms, 1076ms total)
T426C 001:280 JLINK_WriteReg(XPSR, 0x01000000)  returns 0x00 (0000ms, 1076ms total)
T426C 001:280 JLINK_WriteReg(MSP, 0x20001000)  returns 0x00 (0000ms, 1076ms total)
T426C 001:280 JLINK_WriteReg(PSP, 0x20001000)  returns 0x00 (0000ms, 1076ms total)
T426C 001:280 JLINK_WriteReg(CFBP, 0x00000000)  returns 0x00 (0000ms, 1076ms total)
T426C 001:280 JLINK_SetBPEx(Addr = 0x20000000, Type = 0xFFFFFFF2)  returns 0x00000007 (0000ms, 1076ms total)
T426C 001:280 JLINK_Go() -- CPU_WriteMem(4 bytes @ 0xE0002008) -- CPU_WriteMem(4 bytes @ 0xE000200C) -- CPU_WriteMem(4 bytes @ 0xE0002010) -- CPU_WriteMem(4 bytes @ 0xE0002014) -- CPU_WriteMem(4 bytes @ 0xE0002018) -- CPU_WriteMem(4 bytes @ 0xE000201C) (0007ms, 1076ms total)
T426C 001:287 JLINK_IsHalted()  returns FALSE (0001ms, 1083ms total)
T426C 001:292 JLINK_IsHalted() -- CPU_ReadMem(2 bytes @ 0x20000000)  returns TRUE (0004ms, 1083ms total)
T426C 001:296 JLINK_ReadReg(R15)  returns 0x20000000 (0000ms, 1083ms total)
T426C 001:296 JLINK_ClrBPEx(BPHandle = 0x00000007)  returns 0x00 (0000ms, 1083ms total)
T426C 001:296 JLINK_ReadReg(R0)  returns 0x00000000 (0000ms, 1083ms total)
T426C 001:296 JLINK_WriteReg(R0, 0x08000300)  returns 0x00 (0000ms, 1083ms total)
T426C 001:296 JLINK_WriteReg(R1, 0x00000100)  returns 0x00 (0000ms, 1083ms total)
T426C 001:297 JLINK_WriteReg(R2, 0x00000000)  returns 0x00 (0000ms, 1084ms total)
T426C 001:297 JLINK_WriteReg(R3, 0x00000000)  returns 0x00 (0000ms, 1084ms total)
T426C 001:297 JLINK_WriteReg(R4, 0x00000000)  returns 0x00 (0000ms, 1084ms total)
T426C 001:297 JLINK_WriteReg(R5, 0x00000000)  returns 0x00 (0000ms, 1084ms total)
T426C 001:297 JLINK_WriteReg(R6, 0x00000000)  returns 0x00 (0000ms, 1084ms total)
T426C 001:297 JLINK_WriteReg(R7, 0x00000000)  returns 0x00 (0000ms, 1084ms total)
T426C 001:297 JLINK_WriteReg(R8, 0x00000000)  returns 0x00 (0000ms, 1084ms total)
T426C 001:297 JLINK_WriteReg(R9, 0x20000214)  returns 0x00 (0000ms, 1084ms total)
T426C 001:297 JLINK_WriteReg(R10, 0x00000000)  returns 0x00 (0000ms, 1084ms total)
T426C 001:297 JLINK_WriteReg(R11, 0x00000000)  returns 0x00 (0000ms, 1084ms total)
T426C 001:297 JLINK_WriteReg(R12, 0x00000000)  returns 0x00 (0000ms, 1084ms total)
T426C 001:297 JLINK_WriteReg(R13, 0x20001000)  returns 0x00 (0000ms, 1084ms total)
T426C 001:297 JLINK_WriteReg(R14, 0x20000001)  returns 0x00 (0000ms, 1084ms total)
T426C 001:297 JLINK_WriteReg(R15, 0x200000FA)  returns 0x00 (0000ms, 1084ms total)
T426C 001:297 JLINK_WriteReg(XPSR, 0x01000000)  returns 0x00 (0000ms, 1084ms total)
T426C 001:297 JLINK_WriteReg(MSP, 0x20001000)  returns 0x00 (0000ms, 1084ms total)
T426C 001:297 JLINK_WriteReg(PSP, 0x20001000)  returns 0x00 (0000ms, 1084ms total)
T426C 001:297 JLINK_WriteReg(CFBP, 0x00000000)  returns 0x00 (0000ms, 1084ms total)
T426C 001:297 JLINK_SetBPEx(Addr = 0x20000000, Type = 0xFFFFFFF2)  returns 0x00000008 (0000ms, 1084ms total)
T426C 001:297 JLINK_Go() -- CPU_WriteMem(4 bytes @ 0xE0002008) -- CPU_WriteMem(4 bytes @ 0xE000200C) -- CPU_WriteMem(4 bytes @ 0xE0002010) -- CPU_WriteMem(4 bytes @ 0xE0002014) -- CPU_WriteMem(4 bytes @ 0xE0002018) -- CPU_WriteMem(4 bytes @ 0xE000201C) (0007ms, 1084ms total)
T426C 001:304 JLINK_IsHalted() -- CPU_ReadMem(2 bytes @ 0x20000000)  returns TRUE (0003ms, 1091ms total)
T426C 001:307 JLINK_ReadReg(R15)  returns 0x20000000 (0000ms, 1091ms total)
T426C 001:307 JLINK_ClrBPEx(BPHandle = 0x00000008)  returns 0x00 (0000ms, 1091ms total)
T426C 001:307 JLINK_ReadReg(R0)  returns 0x00000001 (0000ms, 1091ms total)
T426C 001:307 JLINK_WriteReg(R0, 0x08000300)  returns 0x00 (0000ms, 1091ms total)
T426C 001:307 JLINK_WriteReg(R1, 0x00000100)  returns 0x00 (0000ms, 1091ms total)
T426C 001:307 JLINK_WriteReg(R2, 0x00000000)  returns 0x00 (0000ms, 1091ms total)
T426C 001:307 JLINK_WriteReg(R3, 0x00000000)  returns 0x00 (0000ms, 1091ms total)
T426C 001:307 JLINK_WriteReg(R4, 0x00000000)  returns 0x00 (0000ms, 1091ms total)
T426C 001:307 JLINK_WriteReg(R5, 0x00000000)  returns 0x00 (0000ms, 1091ms total)
T426C 001:307 JLINK_WriteReg(R6, 0x00000000)  returns 0x00 (0000ms, 1091ms total)
T426C 001:307 JLINK_WriteReg(R7, 0x00000000)  returns 0x00 (0000ms, 1091ms total)
T426C 001:307 JLINK_WriteReg(R8, 0x00000000)  returns 0x00 (0001ms, 1091ms total)
T426C 001:308 JLINK_WriteReg(R9, 0x20000214)  returns 0x00 (0000ms, 1092ms total)
T426C 001:308 JLINK_WriteReg(R10, 0x00000000)  returns 0x00 (0000ms, 1092ms total)
T426C 001:308 JLINK_WriteReg(R11, 0x00000000)  returns 0x00 (0000ms, 1092ms total)
T426C 001:308 JLINK_WriteReg(R12, 0x00000000)  returns 0x00 (0000ms, 1092ms total)
T426C 001:308 JLINK_WriteReg(R13, 0x20001000)  returns 0x00 (0000ms, 1092ms total)
T426C 001:308 JLINK_WriteReg(R14, 0x20000001)  returns 0x00 (0000ms, 1092ms total)
T426C 001:308 JLINK_WriteReg(R15, 0x200000A8)  returns 0x00 (0000ms, 1092ms total)
T426C 001:308 JLINK_WriteReg(XPSR, 0x01000000)  returns 0x00 (0000ms, 1092ms total)
T426C 001:308 JLINK_WriteReg(MSP, 0x20001000)  returns 0x00 (0000ms, 1092ms total)
T426C 001:308 JLINK_WriteReg(PSP, 0x20001000)  returns 0x00 (0000ms, 1092ms total)
T426C 001:308 JLINK_WriteReg(CFBP, 0x00000000)  returns 0x00 (0000ms, 1092ms total)
T426C 001:308 JLINK_SetBPEx(Addr = 0x20000000, Type = 0xFFFFFFF2)  returns 0x00000009 (0000ms, 1092ms total)
T426C 001:308 JLINK_Go() -- CPU_WriteMem(4 bytes @ 0xE0002008) -- CPU_WriteMem(4 bytes @ 0xE000200C) -- CPU_WriteMem(4 bytes @ 0xE0002010) -- CPU_WriteMem(4 bytes @ 0xE0002014) -- CPU_WriteMem(4 bytes @ 0xE0002018) -- CPU_WriteMem(4 bytes @ 0xE000201C) (0007ms, 1092ms total)
T426C 001:315 JLINK_IsHalted()  returns FALSE (0001ms, 1099ms total)
T426C 001:320 JLINK_IsHalted() -- CPU_ReadMem(2 bytes @ 0x20000000)  returns TRUE (0004ms, 1099ms total)
T426C 001:324 JLINK_ReadReg(R15)  returns 0x20000000 (0000ms, 1099ms total)
T426C 001:324 JLINK_ClrBPEx(BPHandle = 0x00000009)  returns 0x00 (0000ms, 1099ms total)
T426C 001:324 JLINK_ReadReg(R0)  returns 0x00000000 (0000ms, 1099ms total)
T426C 001:324 JLINK_WriteReg(R0, 0x08000400)  returns 0x00 (0000ms, 1099ms total)
T426C 001:324 JLINK_WriteReg(R1, 0x00000100)  returns 0x00 (0000ms, 1099ms total)
T426C 001:324 JLINK_WriteReg(R2, 0x00000000)  returns 0x00 (0000ms, 1099ms total)
T426C 001:324 JLINK_WriteReg(R3, 0x00000000)  returns 0x00 (0000ms, 1099ms total)
T426C 001:324 JLINK_WriteReg(R4, 0x00000000)  returns 0x00 (0000ms, 1099ms total)
T426C 001:324 JLINK_WriteReg(R5, 0x00000000)  returns 0x00 (0000ms, 1099ms total)
T426C 001:324 JLINK_WriteReg(R6, 0x00000000)  returns 0x00 (0000ms, 1099ms total)
T426C 001:324 JLINK_WriteReg(R7, 0x00000000)  returns 0x00 (0000ms, 1099ms total)
T426C 001:324 JLINK_WriteReg(R8, 0x00000000)  returns 0x00 (0000ms, 1099ms total)
T426C 001:324 JLINK_WriteReg(R9, 0x20000214)  returns 0x00 (0000ms, 1099ms total)
T426C 001:324 JLINK_WriteReg(R10, 0x00000000)  returns 0x00 (0000ms, 1099ms total)
T426C 001:324 JLINK_WriteReg(R11, 0x00000000)  returns 0x00 (0000ms, 1099ms total)
T426C 001:324 JLINK_WriteReg(R12, 0x00000000)  returns 0x00 (0000ms, 1099ms total)
T426C 001:324 JLINK_WriteReg(R13, 0x20001000)  returns 0x00 (0000ms, 1099ms total)
T426C 001:324 JLINK_WriteReg(R14, 0x20000001)  returns 0x00 (0000ms, 1099ms total)
T426C 001:324 JLINK_WriteReg(R15, 0x200000FA)  returns 0x00 (0000ms, 1099ms total)
T426C 001:324 JLINK_WriteReg(XPSR, 0x01000000)  returns 0x00 (0000ms, 1099ms total)
T426C 001:324 JLINK_WriteReg(MSP, 0x20001000)  returns 0x00 (0000ms, 1099ms total)
T426C 001:324 JLINK_WriteReg(PSP, 0x20001000)  returns 0x00 (0000ms, 1099ms total)
T426C 001:324 JLINK_WriteReg(CFBP, 0x00000000)  returns 0x00 (0000ms, 1099ms total)
T426C 001:324 JLINK_SetBPEx(Addr = 0x20000000, Type = 0xFFFFFFF2)  returns 0x0000000A (0000ms, 1099ms total)
T426C 001:324 JLINK_Go() -- CPU_WriteMem(4 bytes @ 0xE0002008) -- CPU_WriteMem(4 bytes @ 0xE000200C) -- CPU_WriteMem(4 bytes @ 0xE0002010) -- CPU_WriteMem(4 bytes @ 0xE0002014) -- CPU_WriteMem(4 bytes @ 0xE0002018) -- CPU_WriteMem(4 bytes @ 0xE000201C) (0008ms, 1099ms total)
T426C 001:332 JLINK_IsHalted() -- CPU_ReadMem(2 bytes @ 0x20000000)  returns TRUE (0004ms, 1107ms total)
T426C 001:336 JLINK_ReadReg(R15)  returns 0x20000000 (0000ms, 1107ms total)
T426C 001:336 JLINK_ClrBPEx(BPHandle = 0x0000000A)  returns 0x00 (0000ms, 1107ms total)
T426C 001:336 JLINK_ReadReg(R0)  returns 0x00000001 (0000ms, 1107ms total)
T426C 001:336 JLINK_WriteReg(R0, 0x08000400)  returns 0x00 (0000ms, 1107ms total)
T426C 001:336 JLINK_WriteReg(R1, 0x00000100)  returns 0x00 (0000ms, 1107ms total)
T426C 001:336 JLINK_WriteReg(R2, 0x00000000)  returns 0x00 (0000ms, 1107ms total)
T426C 001:336 JLINK_WriteReg(R3, 0x00000000)  returns 0x00 (0000ms, 1107ms total)
T426C 001:336 JLINK_WriteReg(R4, 0x00000000)  returns 0x00 (0000ms, 1107ms total)
T426C 001:336 JLINK_WriteReg(R5, 0x00000000)  returns 0x00 (0000ms, 1107ms total)
T426C 001:336 JLINK_WriteReg(R6, 0x00000000)  returns 0x00 (0000ms, 1107ms total)
T426C 001:336 JLINK_WriteReg(R7, 0x00000000)  returns 0x00 (0000ms, 1107ms total)
T426C 001:336 JLINK_WriteReg(R8, 0x00000000)  returns 0x00 (0000ms, 1107ms total)
T426C 001:336 JLINK_WriteReg(R9, 0x20000214)  returns 0x00 (0000ms, 1107ms total)
T426C 001:336 JLINK_WriteReg(R10, 0x00000000)  returns 0x00 (0000ms, 1107ms total)
T426C 001:336 JLINK_WriteReg(R11, 0x00000000)  returns 0x00 (0000ms, 1107ms total)
T426C 001:336 JLINK_WriteReg(R12, 0x00000000)  returns 0x00 (0000ms, 1107ms total)
T426C 001:336 JLINK_WriteReg(R13, 0x20001000)  returns 0x00 (0000ms, 1107ms total)
T426C 001:336 JLINK_WriteReg(R14, 0x20000001)  returns 0x00 (0000ms, 1107ms total)
T426C 001:336 JLINK_WriteReg(R15, 0x200000A8)  returns 0x00 (0000ms, 1107ms total)
T426C 001:336 JLINK_WriteReg(XPSR, 0x01000000)  returns 0x00 (0000ms, 1107ms total)
T426C 001:336 JLINK_WriteReg(MSP, 0x20001000)  returns 0x00 (0000ms, 1107ms total)
T426C 001:336 JLINK_WriteReg(PSP, 0x20001000)  returns 0x00 (0000ms, 1107ms total)
T426C 001:336 JLINK_WriteReg(CFBP, 0x00000000)  returns 0x00 (0000ms, 1107ms total)
T426C 001:336 JLINK_SetBPEx(Addr = 0x20000000, Type = 0xFFFFFFF2)  returns 0x0000000B (0000ms, 1107ms total)
T426C 001:336 JLINK_Go() -- CPU_WriteMem(4 bytes @ 0xE0002008) -- CPU_WriteMem(4 bytes @ 0xE000200C) -- CPU_WriteMem(4 bytes @ 0xE0002010) -- CPU_WriteMem(4 bytes @ 0xE0002014) -- CPU_WriteMem(4 bytes @ 0xE0002018) -- CPU_WriteMem(4 bytes @ 0xE000201C) (0008ms, 1107ms total)
T426C 001:344 JLINK_IsHalted()  returns FALSE (0001ms, 1115ms total)
T426C 001:348 JLINK_IsHalted() -- CPU_ReadMem(2 bytes @ 0x20000000)  returns TRUE (0004ms, 1115ms total)
T426C 001:352 JLINK_ReadReg(R15)  returns 0x20000000 (0000ms, 1115ms total)
T426C 001:352 JLINK_ClrBPEx(BPHandle = 0x0000000B)  returns 0x00 (0000ms, 1115ms total)
T426C 001:352 JLINK_ReadReg(R0)  returns 0x00000000 (0000ms, 1115ms total)
T426C 001:352 JLINK_WriteReg(R0, 0x08000500)  returns 0x00 (0000ms, 1115ms total)
T426C 001:352 JLINK_WriteReg(R1, 0x00000100)  returns 0x00 (0000ms, 1115ms total)
T426C 001:352 JLINK_WriteReg(R2, 0x00000000)  returns 0x00 (0000ms, 1115ms total)
T426C 001:352 JLINK_WriteReg(R3, 0x00000000)  returns 0x00 (0000ms, 1115ms total)
T426C 001:352 JLINK_WriteReg(R4, 0x00000000)  returns 0x00 (0000ms, 1115ms total)
T426C 001:352 JLINK_WriteReg(R5, 0x00000000)  returns 0x00 (0000ms, 1115ms total)
T426C 001:352 JLINK_WriteReg(R6, 0x00000000)  returns 0x00 (0000ms, 1115ms total)
T426C 001:352 JLINK_WriteReg(R7, 0x00000000)  returns 0x00 (0000ms, 1115ms total)
T426C 001:352 JLINK_WriteReg(R8, 0x00000000)  returns 0x00 (0000ms, 1115ms total)
T426C 001:352 JLINK_WriteReg(R9, 0x20000214)  returns 0x00 (0000ms, 1115ms total)
T426C 001:352 JLINK_WriteReg(R10, 0x00000000)  returns 0x00 (0001ms, 1115ms total)
T426C 001:353 JLINK_WriteReg(R11, 0x00000000)  returns 0x00 (0000ms, 1116ms total)
T426C 001:353 JLINK_WriteReg(R12, 0x00000000)  returns 0x00 (0000ms, 1116ms total)
T426C 001:353 JLINK_WriteReg(R13, 0x20001000)  returns 0x00 (0000ms, 1116ms total)
T426C 001:353 JLINK_WriteReg(R14, 0x20000001)  returns 0x00 (0000ms, 1116ms total)
T426C 001:353 JLINK_WriteReg(R15, 0x200000FA)  returns 0x00 (0000ms, 1116ms total)
T426C 001:353 JLINK_WriteReg(XPSR, 0x01000000)  returns 0x00 (0000ms, 1116ms total)
T426C 001:353 JLINK_WriteReg(MSP, 0x20001000)  returns 0x00 (0000ms, 1116ms total)
T426C 001:353 JLINK_WriteReg(PSP, 0x20001000)  returns 0x00 (0000ms, 1116ms total)
T426C 001:353 JLINK_WriteReg(CFBP, 0x00000000)  returns 0x00 (0000ms, 1116ms total)
T426C 001:353 JLINK_SetBPEx(Addr = 0x20000000, Type = 0xFFFFFFF2)  returns 0x0000000C (0000ms, 1116ms total)
T426C 001:353 JLINK_Go() -- CPU_WriteMem(4 bytes @ 0xE0002008) -- CPU_WriteMem(4 bytes @ 0xE000200C) -- CPU_WriteMem(4 bytes @ 0xE0002010) -- CPU_WriteMem(4 bytes @ 0xE0002014) -- CPU_WriteMem(4 bytes @ 0xE0002018) -- CPU_WriteMem(4 bytes @ 0xE000201C) (0007ms, 1116ms total)
T426C 001:360 JLINK_IsHalted() -- CPU_ReadMem(2 bytes @ 0x20000000)  returns TRUE (0004ms, 1123ms total)
T426C 001:364 JLINK_ReadReg(R15)  returns 0x20000000 (0000ms, 1123ms total)
T426C 001:364 JLINK_ClrBPEx(BPHandle = 0x0000000C)  returns 0x00 (0000ms, 1123ms total)
T426C 001:364 JLINK_ReadReg(R0)  returns 0x00000001 (0000ms, 1123ms total)
T426C 001:364 JLINK_WriteReg(R0, 0x08000500)  returns 0x00 (0000ms, 1123ms total)
T426C 001:364 JLINK_WriteReg(R1, 0x00000100)  returns 0x00 (0000ms, 1123ms total)
T426C 001:364 JLINK_WriteReg(R2, 0x00000000)  returns 0x00 (0000ms, 1123ms total)
T426C 001:364 JLINK_WriteReg(R3, 0x00000000)  returns 0x00 (0000ms, 1123ms total)
T426C 001:364 JLINK_WriteReg(R4, 0x00000000)  returns 0x00 (0000ms, 1123ms total)
T426C 001:364 JLINK_WriteReg(R5, 0x00000000)  returns 0x00 (0000ms, 1123ms total)
T426C 001:364 JLINK_WriteReg(R6, 0x00000000)  returns 0x00 (0000ms, 1123ms total)
T426C 001:364 JLINK_WriteReg(R7, 0x00000000)  returns 0x00 (0000ms, 1123ms total)
T426C 001:364 JLINK_WriteReg(R8, 0x00000000)  returns 0x00 (0000ms, 1123ms total)
T426C 001:364 JLINK_WriteReg(R9, 0x20000214)  returns 0x00 (0001ms, 1123ms total)
T426C 001:365 JLINK_WriteReg(R10, 0x00000000)  returns 0x00 (0000ms, 1124ms total)
T426C 001:365 JLINK_WriteReg(R11, 0x00000000)  returns 0x00 (0000ms, 1124ms total)
T426C 001:365 JLINK_WriteReg(R12, 0x00000000)  returns 0x00 (0000ms, 1124ms total)
T426C 001:365 JLINK_WriteReg(R13, 0x20001000)  returns 0x00 (0000ms, 1124ms total)
T426C 001:365 JLINK_WriteReg(R14, 0x20000001)  returns 0x00 (0000ms, 1124ms total)
T426C 001:365 JLINK_WriteReg(R15, 0x200000A8)  returns 0x00 (0000ms, 1124ms total)
T426C 001:365 JLINK_WriteReg(XPSR, 0x01000000)  returns 0x00 (0000ms, 1124ms total)
T426C 001:365 JLINK_WriteReg(MSP, 0x20001000)  returns 0x00 (0000ms, 1124ms total)
T426C 001:365 JLINK_WriteReg(PSP, 0x20001000)  returns 0x00 (0000ms, 1124ms total)
T426C 001:365 JLINK_WriteReg(CFBP, 0x00000000)  returns 0x00 (0000ms, 1124ms total)
T426C 001:365 JLINK_SetBPEx(Addr = 0x20000000, Type = 0xFFFFFFF2)  returns 0x0000000D (0000ms, 1124ms total)
T426C 001:365 JLINK_Go() -- CPU_WriteMem(4 bytes @ 0xE0002008) -- CPU_WriteMem(4 bytes @ 0xE000200C) -- CPU_WriteMem(4 bytes @ 0xE0002010) -- CPU_WriteMem(4 bytes @ 0xE0002014) -- CPU_WriteMem(4 bytes @ 0xE0002018) -- CPU_WriteMem(4 bytes @ 0xE000201C) (0007ms, 1124ms total)
T426C 001:372 JLINK_IsHalted()  returns FALSE (0001ms, 1131ms total)
T426C 001:379 JLINK_IsHalted() -- CPU_ReadMem(2 bytes @ 0x20000000)  returns TRUE (0004ms, 1131ms total)
T426C 001:383 JLINK_ReadReg(R15)  returns 0x20000000 (0000ms, 1131ms total)
T426C 001:383 JLINK_ClrBPEx(BPHandle = 0x0000000D)  returns 0x00 (0000ms, 1131ms total)
T426C 001:383 JLINK_ReadReg(R0)  returns 0x00000000 (0000ms, 1131ms total)
T426C 001:383 JLINK_WriteReg(R0, 0x08000600)  returns 0x00 (0000ms, 1131ms total)
T426C 001:383 JLINK_WriteReg(R1, 0x00000100)  returns 0x00 (0000ms, 1131ms total)
T426C 001:383 JLINK_WriteReg(R2, 0x00000000)  returns 0x00 (0000ms, 1131ms total)
T426C 001:383 JLINK_WriteReg(R3, 0x00000000)  returns 0x00 (0000ms, 1131ms total)
T426C 001:383 JLINK_WriteReg(R4, 0x00000000)  returns 0x00 (0000ms, 1131ms total)
T426C 001:383 JLINK_WriteReg(R5, 0x00000000)  returns 0x00 (0000ms, 1131ms total)
T426C 001:383 JLINK_WriteReg(R6, 0x00000000)  returns 0x00 (0000ms, 1131ms total)
T426C 001:383 JLINK_WriteReg(R7, 0x00000000)  returns 0x00 (0000ms, 1131ms total)
T426C 001:383 JLINK_WriteReg(R8, 0x00000000)  returns 0x00 (0000ms, 1131ms total)
T426C 001:383 JLINK_WriteReg(R9, 0x20000214)  returns 0x00 (0000ms, 1131ms total)
T426C 001:383 JLINK_WriteReg(R10, 0x00000000)  returns 0x00 (0000ms, 1131ms total)
T426C 001:383 JLINK_WriteReg(R11, 0x00000000)  returns 0x00 (0000ms, 1131ms total)
T426C 001:383 JLINK_WriteReg(R12, 0x00000000)  returns 0x00 (0000ms, 1131ms total)
T426C 001:383 JLINK_WriteReg(R13, 0x20001000)  returns 0x00 (0000ms, 1131ms total)
T426C 001:383 JLINK_WriteReg(R14, 0x20000001)  returns 0x00 (0000ms, 1131ms total)
T426C 001:383 JLINK_WriteReg(R15, 0x200000FA)  returns 0x00 (0000ms, 1131ms total)
T426C 001:383 JLINK_WriteReg(XPSR, 0x01000000)  returns 0x00 (0000ms, 1131ms total)
T426C 001:383 JLINK_WriteReg(MSP, 0x20001000)  returns 0x00 (0000ms, 1131ms total)
T426C 001:383 JLINK_WriteReg(PSP, 0x20001000)  returns 0x00 (0000ms, 1131ms total)
T426C 001:383 JLINK_WriteReg(CFBP, 0x00000000)  returns 0x00 (0000ms, 1131ms total)
T426C 001:383 JLINK_SetBPEx(Addr = 0x20000000, Type = 0xFFFFFFF2)  returns 0x0000000E (0000ms, 1131ms total)
T426C 001:383 JLINK_Go() -- CPU_WriteMem(4 bytes @ 0xE0002008) -- CPU_WriteMem(4 bytes @ 0xE000200C) -- CPU_WriteMem(4 bytes @ 0xE0002010) -- CPU_WriteMem(4 bytes @ 0xE0002014) -- CPU_WriteMem(4 bytes @ 0xE0002018) -- CPU_WriteMem(4 bytes @ 0xE000201C) (0008ms, 1131ms total)
T426C 001:391 JLINK_IsHalted() -- CPU_ReadMem(2 bytes @ 0x20000000)  returns TRUE (0004ms, 1139ms total)
T426C 001:395 JLINK_ReadReg(R15)  returns 0x20000000 (0000ms, 1139ms total)
T426C 001:395 JLINK_ClrBPEx(BPHandle = 0x0000000E)  returns 0x00 (0000ms, 1139ms total)
T426C 001:395 JLINK_ReadReg(R0)  returns 0x00000001 (0000ms, 1139ms total)
T426C 001:395 JLINK_WriteReg(R0, 0x08000600)  returns 0x00 (0000ms, 1139ms total)
T426C 001:395 JLINK_WriteReg(R1, 0x00000100)  returns 0x00 (0000ms, 1139ms total)
T426C 001:395 JLINK_WriteReg(R2, 0x00000000)  returns 0x00 (0000ms, 1139ms total)
T426C 001:395 JLINK_WriteReg(R3, 0x00000000)  returns 0x00 (0000ms, 1139ms total)
T426C 001:395 JLINK_WriteReg(R4, 0x00000000)  returns 0x00 (0000ms, 1139ms total)
T426C 001:395 JLINK_WriteReg(R5, 0x00000000)  returns 0x00 (0000ms, 1139ms total)
T426C 001:395 JLINK_WriteReg(R6, 0x00000000)  returns 0x00 (0000ms, 1139ms total)
T426C 001:395 JLINK_WriteReg(R7, 0x00000000)  returns 0x00 (0000ms, 1139ms total)
T426C 001:395 JLINK_WriteReg(R8, 0x00000000)  returns 0x00 (0000ms, 1139ms total)
T426C 001:395 JLINK_WriteReg(R9, 0x20000214)  returns 0x00 (0000ms, 1139ms total)
T426C 001:395 JLINK_WriteReg(R10, 0x00000000)  returns 0x00 (0000ms, 1139ms total)
T426C 001:395 JLINK_WriteReg(R11, 0x00000000)  returns 0x00 (0000ms, 1139ms total)
T426C 001:395 JLINK_WriteReg(R12, 0x00000000)  returns 0x00 (0000ms, 1139ms total)
T426C 001:395 JLINK_WriteReg(R13, 0x20001000)  returns 0x00 (0000ms, 1139ms total)
T426C 001:395 JLINK_WriteReg(R14, 0x20000001)  returns 0x00 (0000ms, 1139ms total)
T426C 001:395 JLINK_WriteReg(R15, 0x200000A8)  returns 0x00 (0000ms, 1139ms total)
T426C 001:395 JLINK_WriteReg(XPSR, 0x01000000)  returns 0x00 (0000ms, 1139ms total)
T426C 001:395 JLINK_WriteReg(MSP, 0x20001000)  returns 0x00 (0000ms, 1139ms total)
T426C 001:395 JLINK_WriteReg(PSP, 0x20001000)  returns 0x00 (0000ms, 1139ms total)
T426C 001:395 JLINK_WriteReg(CFBP, 0x00000000)  returns 0x00 (0000ms, 1139ms total)
T426C 001:395 JLINK_SetBPEx(Addr = 0x20000000, Type = 0xFFFFFFF2)  returns 0x0000000F (0000ms, 1139ms total)
T426C 001:395 JLINK_Go() -- CPU_WriteMem(4 bytes @ 0xE0002008) -- CPU_WriteMem(4 bytes @ 0xE000200C) -- CPU_WriteMem(4 bytes @ 0xE0002010) -- CPU_WriteMem(4 bytes @ 0xE0002014) -- CPU_WriteMem(4 bytes @ 0xE0002018) -- CPU_WriteMem(4 bytes @ 0xE000201C) (0008ms, 1139ms total)
T426C 001:403 JLINK_IsHalted()  returns FALSE (0000ms, 1147ms total)
T426C 001:405 JLINK_IsHalted()  returns FALSE (0000ms, 1147ms total)
T426C 001:407 JLINK_IsHalted() -- CPU_ReadMem(2 bytes @ 0x20000000)  returns TRUE (0004ms, 1147ms total)
T426C 001:411 JLINK_ReadReg(R15)  returns 0x20000000 (0000ms, 1147ms total)
T426C 001:411 JLINK_ClrBPEx(BPHandle = 0x0000000F)  returns 0x00 (0000ms, 1147ms total)
T426C 001:411 JLINK_ReadReg(R0)  returns 0x00000000 (0000ms, 1147ms total)
T426C 001:411 JLINK_WriteReg(R0, 0x08000700)  returns 0x00 (0000ms, 1147ms total)
T426C 001:411 JLINK_WriteReg(R1, 0x00000100)  returns 0x00 (0000ms, 1147ms total)
T426C 001:411 JLINK_WriteReg(R2, 0x00000000)  returns 0x00 (0000ms, 1147ms total)
T426C 001:411 JLINK_WriteReg(R3, 0x00000000)  returns 0x00 (0000ms, 1147ms total)
T426C 001:411 JLINK_WriteReg(R4, 0x00000000)  returns 0x00 (0000ms, 1147ms total)
T426C 001:411 JLINK_WriteReg(R5, 0x00000000)  returns 0x00 (0000ms, 1147ms total)
T426C 001:411 JLINK_WriteReg(R6, 0x00000000)  returns 0x00 (0000ms, 1147ms total)
T426C 001:411 JLINK_WriteReg(R7, 0x00000000)  returns 0x00 (0000ms, 1147ms total)
T426C 001:411 JLINK_WriteReg(R8, 0x00000000)  returns 0x00 (0000ms, 1147ms total)
T426C 001:411 JLINK_WriteReg(R9, 0x20000214)  returns 0x00 (0000ms, 1147ms total)
T426C 001:411 JLINK_WriteReg(R10, 0x00000000)  returns 0x00 (0000ms, 1147ms total)
T426C 001:411 JLINK_WriteReg(R11, 0x00000000)  returns 0x00 (0000ms, 1147ms total)
T426C 001:411 JLINK_WriteReg(R12, 0x00000000)  returns 0x00 (0000ms, 1147ms total)
T426C 001:411 JLINK_WriteReg(R13, 0x20001000)  returns 0x00 (0000ms, 1147ms total)
T426C 001:411 JLINK_WriteReg(R14, 0x20000001)  returns 0x00 (0000ms, 1147ms total)
T426C 001:411 JLINK_WriteReg(R15, 0x200000FA)  returns 0x00 (0000ms, 1147ms total)
T426C 001:411 JLINK_WriteReg(XPSR, 0x01000000)  returns 0x00 (0000ms, 1147ms total)
T426C 001:411 JLINK_WriteReg(MSP, 0x20001000)  returns 0x00 (0000ms, 1147ms total)
T426C 001:411 JLINK_WriteReg(PSP, 0x20001000)  returns 0x00 (0000ms, 1147ms total)
T426C 001:411 JLINK_WriteReg(CFBP, 0x00000000)  returns 0x00 (0000ms, 1147ms total)
T426C 001:411 JLINK_SetBPEx(Addr = 0x20000000, Type = 0xFFFFFFF2)  returns 0x00000010 (0000ms, 1147ms total)
T426C 001:411 JLINK_Go() -- CPU_WriteMem(4 bytes @ 0xE0002008) -- CPU_WriteMem(4 bytes @ 0xE000200C) -- CPU_WriteMem(4 bytes @ 0xE0002010) -- CPU_WriteMem(4 bytes @ 0xE0002014) -- CPU_WriteMem(4 bytes @ 0xE0002018) -- CPU_WriteMem(4 bytes @ 0xE000201C) (0008ms, 1147ms total)
T426C 001:419 JLINK_IsHalted() -- CPU_ReadMem(2 bytes @ 0x20000000)  returns TRUE (0004ms, 1155ms total)
T426C 001:423 JLINK_ReadReg(R15)  returns 0x20000000 (0000ms, 1155ms total)
T426C 001:423 JLINK_ClrBPEx(BPHandle = 0x00000010)  returns 0x00 (0000ms, 1155ms total)
T426C 001:423 JLINK_ReadReg(R0)  returns 0x00000001 (0000ms, 1155ms total)
T426C 001:423 JLINK_WriteReg(R0, 0x08000700)  returns 0x00 (0000ms, 1155ms total)
T426C 001:423 JLINK_WriteReg(R1, 0x00000100)  returns 0x00 (0000ms, 1155ms total)
T426C 001:423 JLINK_WriteReg(R2, 0x00000000)  returns 0x00 (0000ms, 1155ms total)
T426C 001:423 JLINK_WriteReg(R3, 0x00000000)  returns 0x00 (0000ms, 1155ms total)
T426C 001:423 JLINK_WriteReg(R4, 0x00000000)  returns 0x00 (0000ms, 1155ms total)
T426C 001:423 JLINK_WriteReg(R5, 0x00000000)  returns 0x00 (0000ms, 1155ms total)
T426C 001:423 JLINK_WriteReg(R6, 0x00000000)  returns 0x00 (0000ms, 1155ms total)
T426C 001:423 JLINK_WriteReg(R7, 0x00000000)  returns 0x00 (0000ms, 1155ms total)
T426C 001:423 JLINK_WriteReg(R8, 0x00000000)  returns 0x00 (0000ms, 1155ms total)
T426C 001:423 JLINK_WriteReg(R9, 0x20000214)  returns 0x00 (0000ms, 1155ms total)
T426C 001:423 JLINK_WriteReg(R10, 0x00000000)  returns 0x00 (0000ms, 1155ms total)
T426C 001:423 JLINK_WriteReg(R11, 0x00000000)  returns 0x00 (0000ms, 1155ms total)
T426C 001:423 JLINK_WriteReg(R12, 0x00000000)  returns 0x00 (0000ms, 1155ms total)
T426C 001:423 JLINK_WriteReg(R13, 0x20001000)  returns 0x00 (0000ms, 1155ms total)
T426C 001:423 JLINK_WriteReg(R14, 0x20000001)  returns 0x00 (0000ms, 1155ms total)
T426C 001:423 JLINK_WriteReg(R15, 0x200000A8)  returns 0x00 (0000ms, 1155ms total)
T426C 001:423 JLINK_WriteReg(XPSR, 0x01000000)  returns 0x00 (0000ms, 1155ms total)
T426C 001:423 JLINK_WriteReg(MSP, 0x20001000)  returns 0x00 (0000ms, 1155ms total)
T426C 001:423 JLINK_WriteReg(PSP, 0x20001000)  returns 0x00 (0000ms, 1155ms total)
T426C 001:423 JLINK_WriteReg(CFBP, 0x00000000)  returns 0x00 (0000ms, 1155ms total)
T426C 001:423 JLINK_SetBPEx(Addr = 0x20000000, Type = 0xFFFFFFF2)  returns 0x00000011 (0000ms, 1155ms total)
T426C 001:423 JLINK_Go() -- CPU_WriteMem(4 bytes @ 0xE0002008) -- CPU_WriteMem(4 bytes @ 0xE000200C) -- CPU_WriteMem(4 bytes @ 0xE0002010) -- CPU_WriteMem(4 bytes @ 0xE0002014) -- CPU_WriteMem(4 bytes @ 0xE0002018) -- CPU_WriteMem(4 bytes @ 0xE000201C) (0008ms, 1155ms total)
T426C 001:431 JLINK_IsHalted()  returns FALSE (0001ms, 1163ms total)
T426C 001:436 JLINK_IsHalted() -- CPU_ReadMem(2 bytes @ 0x20000000)  returns TRUE (0004ms, 1163ms total)
T426C 001:440 JLINK_ReadReg(R15)  returns 0x20000000 (0000ms, 1163ms total)
T426C 001:440 JLINK_ClrBPEx(BPHandle = 0x00000011)  returns 0x00 (0000ms, 1163ms total)
T426C 001:440 JLINK_ReadReg(R0)  returns 0x00000000 (0000ms, 1163ms total)
T426C 001:440 JLINK_WriteReg(R0, 0x08000800)  returns 0x00 (0000ms, 1163ms total)
T426C 001:440 JLINK_WriteReg(R1, 0x00000100)  returns 0x00 (0000ms, 1163ms total)
T426C 001:440 JLINK_WriteReg(R2, 0x00000000)  returns 0x00 (0000ms, 1163ms total)
T426C 001:440 JLINK_WriteReg(R3, 0x00000000)  returns 0x00 (0000ms, 1163ms total)
T426C 001:440 JLINK_WriteReg(R4, 0x00000000)  returns 0x00 (0000ms, 1163ms total)
T426C 001:440 JLINK_WriteReg(R5, 0x00000000)  returns 0x00 (0000ms, 1163ms total)
T426C 001:440 JLINK_WriteReg(R6, 0x00000000)  returns 0x00 (0000ms, 1163ms total)
T426C 001:440 JLINK_WriteReg(R7, 0x00000000)  returns 0x00 (0000ms, 1163ms total)
T426C 001:440 JLINK_WriteReg(R8, 0x00000000)  returns 0x00 (0000ms, 1163ms total)
T426C 001:440 JLINK_WriteReg(R9, 0x20000214)  returns 0x00 (0000ms, 1163ms total)
T426C 001:440 JLINK_WriteReg(R10, 0x00000000)  returns 0x00 (0000ms, 1163ms total)
T426C 001:440 JLINK_WriteReg(R11, 0x00000000)  returns 0x00 (0000ms, 1163ms total)
T426C 001:440 JLINK_WriteReg(R12, 0x00000000)  returns 0x00 (0000ms, 1163ms total)
T426C 001:440 JLINK_WriteReg(R13, 0x20001000)  returns 0x00 (0000ms, 1163ms total)
T426C 001:440 JLINK_WriteReg(R14, 0x20000001)  returns 0x00 (0000ms, 1163ms total)
T426C 001:440 JLINK_WriteReg(R15, 0x200000FA)  returns 0x00 (0000ms, 1163ms total)
T426C 001:440 JLINK_WriteReg(XPSR, 0x01000000)  returns 0x00 (0000ms, 1163ms total)
